,time,vin,vout
0,-0.08,4.96,4.82
1,-0.07992,4.96,4.84
2,-0.07984000000000001,4.94,4.82
3,-0.07976,4.94,4.84
4,-0.07968,4.96,4.82
5,-0.0796,4.94,4.84
6,-0.07952000000000001,4.96,4.84
7,-0.07944,4.96,4.84
8,-0.07936,4.96,4.84
9,-0.07928,4.96,4.84
10,-0.0792,4.96,4.84
11,-0.07912,4.94,4.84
12,-0.07904,4.94,4.84
13,-0.07896,4.96,4.84
14,-0.07888,4.94,4.84
15,-0.0788,4.96,4.84
16,-0.07872,4.94,4.86
17,-0.07864,4.94,4.84
18,-0.07856,4.94,4.84
19,-0.07848000000000001,4.94,4.84
20,-0.0784,4.94,4.86
21,-0.07832,4.94,4.84
22,-0.07824,4.94,4.84
23,-0.07816000000000001,4.94,4.84
24,-0.07808,4.94,4.84
25,-0.078,4.94,4.84
26,-0.07792,4.94,4.84
27,-0.07784,4.94,4.84
28,-0.07776,4.94,4.84
29,-0.07768,4.96,4.84
30,-0.0776,4.94,4.84
31,-0.07752,4.94,4.84
32,-0.07744,4.94,4.84
33,-0.07736,4.94,4.84
34,-0.07728,4.94,4.84
35,-0.0772,4.96,4.84
36,-0.07712000000000001,4.94,4.84
37,-0.07704,4.96,4.84
38,-0.07696,4.96,4.84
39,-0.07688,4.94,4.84
40,-0.07680000000000001,4.94,4.84
41,-0.07672,4.96,4.86
42,-0.07664,4.94,4.86
43,-0.07656,4.94,4.84
44,-0.07648,4.96,4.86
45,-0.0764,4.96,4.86
46,-0.07632,4.96,4.86
47,-0.07624,4.96,4.86
48,-0.07616,4.96,4.86
49,-0.07608,4.96,4.86
50,-0.076,4.96,4.84
51,-0.07592,4.96,4.86
52,-0.07584,4.96,4.86
53,-0.07576,4.96,4.86
54,-0.07568,4.96,4.84
55,-0.0756,4.96,4.86
56,-0.07552,4.96,4.84
57,-0.07544000000000001,4.96,4.86
58,-0.07536,4.94,4.86
59,-0.07528,4.96,4.86
60,-0.0752,4.94,4.86
61,-0.07512,4.94,4.86
62,-0.07504,4.94,4.86
63,-0.07496,4.94,4.86
64,-0.07488,4.94,4.86
65,-0.0748,4.94,4.86
66,-0.07472,4.96,4.86
67,-0.07464,4.96,4.86
68,-0.07456,4.94,4.86
69,-0.07448,4.96,4.86
70,-0.0744,4.94,4.86
71,-0.07432,4.94,4.86
72,-0.07424,4.94,4.86
73,-0.07416,4.94,4.88
74,-0.07408000000000001,4.96,4.86
75,-0.074,4.94,4.86
76,-0.07392,4.96,4.86
77,-0.07384,4.96,4.86
78,-0.07376,4.96,4.86
79,-0.07368,4.96,4.86
80,-0.0736,4.96,4.86
81,-0.07352,4.96,4.86
82,-0.07344,4.96,4.88
83,-0.07336,4.96,4.88
84,-0.07328,4.96,4.86
85,-0.0732,4.94,4.86
86,-0.07312,4.94,4.86
87,-0.07304,4.96,4.86
88,-0.07296,4.96,4.86
89,-0.07288,4.96,4.86
90,-0.0728,4.96,4.86
91,-0.07272,4.96,4.86
92,-0.07264,4.96,4.86
93,-0.07256,4.94,4.88
94,-0.07248,4.94,4.86
95,-0.0724,4.94,4.86
96,-0.07232,4.94,4.86
97,-0.07224,4.94,4.86
98,-0.07216,4.94,4.86
99,-0.07208,4.94,4.86
100,-0.07200000000000001,4.94,4.86
101,-0.07192,4.94,4.86
102,-0.07184,4.94,4.86
103,-0.07176,4.94,4.86
104,-0.07168,4.94,4.86
105,-0.0716,4.94,4.86
106,-0.07152,4.96,4.86
107,-0.07144,4.94,4.86
108,-0.07136,4.94,4.86
109,-0.07128,4.94,4.86
110,-0.0712,4.96,4.86
111,-0.07112,4.94,4.86
112,-0.07104,4.96,4.86
113,-0.07096,4.94,4.86
114,-0.07088,4.94,4.86
115,-0.0708,4.96,4.86
116,-0.07072,4.96,4.86
117,-0.07064000000000001,4.96,4.86
118,-0.07056,4.96,4.86
119,-0.07048,4.96,4.88
120,-0.0704,4.96,4.86
121,-0.07032,4.96,4.86
122,-0.07024,4.96,4.86
123,-0.07016,4.96,4.86
124,-0.07008,4.96,4.86
125,-0.07,4.96,4.86
126,-0.06992,4.96,4.86
127,-0.06984,4.96,4.86
128,-0.06976,4.94,4.86
129,-0.06968,4.94,4.86
130,-0.0696,4.94,4.86
131,-0.06952,4.94,4.86
132,-0.06944,4.96,4.86
133,-0.06936,4.94,4.86
134,-0.06928000000000001,4.94,4.86
135,-0.0692,4.94,4.86
136,-0.06912,4.96,4.86
137,-0.06904,4.94,4.88
138,-0.06896,4.94,4.88
139,-0.06888,4.94,4.88
140,-0.0688,4.94,4.86
141,-0.06872,4.94,4.86
142,-0.06864,4.94,4.86
143,-0.06856,4.94,4.86
144,-0.06848,4.96,4.86
145,-0.0684,4.94,4.86
146,-0.06832,4.94,4.86
147,-0.06824,4.94,4.86
148,-0.06816,4.96,4.86
149,-0.06808,4.96,4.86
150,-0.068,4.94,4.86
151,-0.06792000000000001,4.94,4.88
152,-0.06784,4.96,4.86
153,-0.06776,4.94,4.88
154,-0.06768,4.94,4.88
155,-0.0676,4.96,4.88
156,-0.06752,4.96,4.88
157,-0.06744,4.96,4.88
158,-0.06736,4.96,4.88
159,-0.06728,4.96,4.86
160,-0.0672,4.94,4.86
161,-0.06712,4.96,4.88
162,-0.06704,4.96,4.86
163,-0.06696,4.94,4.88
164,-0.06688,4.96,4.86
165,-0.0668,4.96,4.86
166,-0.06672,4.96,4.86
167,-0.06664,4.94,4.86
168,-0.06656000000000001,4.94,4.86
169,-0.06648,4.96,4.88
170,-0.0664,4.96,4.86
171,-0.06632,4.94,4.86
172,-0.06624,4.94,4.88
173,-0.06616,4.94,4.86
174,-0.06608,4.94,4.88
175,-0.066,4.96,4.86
176,-0.06592,4.94,4.86
177,-0.06584,4.94,4.86
178,-0.06576,4.94,4.86
179,-0.06568,4.94,4.86
180,-0.0656,4.94,4.88
181,-0.06552,4.96,4.86
182,-0.06544,4.94,4.86
183,-0.06536,4.96,4.88
184,-0.06528,4.96,4.88
185,-0.06520000000000001,4.96,4.88
186,-0.06512,4.94,4.88
187,-0.06504,4.94,4.88
188,-0.06496,4.96,4.88
189,-0.06488,4.96,4.88
190,-0.0648,4.96,4.86
191,-0.06472,4.94,4.88
192,-0.06464,4.96,4.88
193,-0.06456,4.94,4.88
194,-0.06448,4.96,4.86
195,-0.0644,4.96,4.88
196,-0.06432,4.94,4.86
197,-0.06424,4.94,4.88
198,-0.06416,4.96,4.86
199,-0.06408,4.96,4.88
200,-0.064,4.96,4.88
201,-0.06392,4.96,4.88
202,-0.06384000000000001,4.96,4.88
203,-0.06376,4.96,4.86
204,-0.06368,4.96,4.86
205,-0.0636,4.94,4.86
206,-0.06352,4.96,4.86
207,-0.06344,4.96,4.88
208,-0.06336,4.94,4.88
209,-0.06328,4.94,4.88
210,-0.0632,4.94,4.88
211,-0.06312,4.94,4.88
212,-0.06304,4.94,4.86
213,-0.06296,4.94,4.9
214,-0.06288,4.96,4.88
215,-0.0628,4.94,4.88
216,-0.06272,4.94,4.88
217,-0.06264,4.96,4.88
218,-0.06256,4.96,4.88
219,-0.06248,0.02,4.84
220,-0.0624,0.02,4.8
221,-0.06232,0.02,4.78
222,-0.062240000000000004,0.04,4.74
223,-0.06216,0.02,4.7
224,-0.062079999999999996,0.04,4.64
225,-0.062,0.02,4.62
226,-0.06192,0.04,4.58
227,-0.06184,0.04,4.5600000000000005
228,-0.061759999999999995,0.02,4.5
229,-0.06168,0.02,4.46
230,-0.0616,0.02,4.44
231,-0.061520000000000005,0.0,4.4
232,-0.06144,0.02,4.36
233,-0.06136,0.02,4.32
234,-0.06128,0.02,4.3
235,-0.061200000000000004,0.04,4.24
236,-0.06112,0.02,4.2
237,-0.06104,0.02,4.2
238,-0.06096,0.02,4.14
239,-0.060880000000000004,0.02,4.1
240,-0.0608,0.02,4.08
241,-0.060719999999999996,0.02,4.04
242,-0.06064,0.02,4.0
243,-0.06056,0.02,3.98
244,-0.06048,0.02,3.94
245,-0.060399999999999995,0.02,3.9
246,-0.06032,0.0,3.88
247,-0.06024,0.02,3.84
248,-0.060160000000000005,0.02,3.8200000000000003
249,-0.06008,0.02,3.7800000000000002
250,-0.06,0.02,3.7600000000000002
251,-0.05992,0.0,3.72
252,-0.059840000000000004,0.02,3.7
253,-0.05976,0.02,3.66
254,-0.05968,0.02,3.64
255,-0.0596,0.02,3.6
256,-0.05952,0.02,3.58
257,-0.05944,0.02,3.54
258,-0.059359999999999996,0.02,3.52
259,-0.05928,0.02,3.48
260,-0.0592,0.02,3.46
261,-0.05912,0.02,3.44
262,-0.059039999999999995,0.02,3.4
263,-0.05896,0.02,3.38
264,-0.05888,0.02,3.36
265,-0.058800000000000005,0.02,3.34
266,-0.05872,0.02,3.3000000000000003
267,-0.05864,0.0,3.2800000000000002
268,-0.05856,0.02,3.24
269,-0.058480000000000004,0.02,3.22
270,-0.0584,0.0,3.2
271,-0.05832,0.02,3.16
272,-0.05824,0.02,3.14
273,-0.05816,0.02,3.12
274,-0.05808,0.02,3.08
275,-0.057999999999999996,0.02,3.06
276,-0.05792,0.02,3.04
277,-0.05784,0.02,3.02
278,-0.05776,0.02,2.98
279,-0.057679999999999995,0.02,2.96
280,-0.0576,0.02,2.94
281,-0.05752,0.02,2.92
282,-0.057440000000000005,0.02,2.88
283,-0.05736,0.02,2.86
284,-0.05728,0.02,2.84
285,-0.0572,0.02,2.82
286,-0.057120000000000004,0.02,2.8000000000000003
287,-0.05704,0.0,2.7800000000000002
288,-0.05696,0.02,2.7600000000000002
289,-0.05688,0.02,2.74
290,-0.0568,0.02,2.7
291,-0.05672,0.02,2.68
292,-0.056639999999999996,0.02,2.66
293,-0.05656,0.02,2.64
294,-0.05648,0.0,2.64
295,-0.0564,0.02,2.62
296,-0.056319999999999995,0.02,2.6
297,-0.05624,0.02,2.58
298,-0.05616,0.02,2.54
299,-0.056080000000000005,0.0,2.52
300,-0.056,0.02,2.52
301,-0.05592,0.02,2.5
302,-0.05584,0.0,2.46
303,-0.055760000000000004,0.02,2.44
304,-0.05568,0.02,2.44
305,-0.0556,0.02,2.42
306,-0.05552,0.02,2.38
307,-0.05544,0.0,2.36
308,-0.05536,0.02,2.36
309,-0.055279999999999996,0.02,2.34
310,-0.0552,0.0,2.3000000000000003
311,-0.05512,0.0,2.3000000000000003
312,-0.05504,0.02,2.2600000000000002
313,-0.054959999999999995,0.02,2.2600000000000002
314,-0.05488,0.02,2.24
315,-0.0548,0.02,2.22
316,-0.054720000000000005,0.02,2.2
317,-0.05464,0.02,2.2
318,-0.05456,0.02,2.18
319,-0.05448,0.0,2.14
320,-0.054400000000000004,0.0,2.14
321,-0.05432,0.0,2.1
322,-0.05424,0.02,2.1
323,-0.05416,0.0,2.08
324,-0.05408,0.0,2.06
325,-0.054,0.02,2.06
326,-0.053919999999999996,0.02,2.02
327,-0.05384,0.02,2.02
328,-0.05376,0.02,1.98
329,-0.05368,0.02,1.98
330,-0.053599999999999995,0.0,1.98
331,-0.05352,0.0,1.94
332,-0.05344,0.0,1.94
333,-0.053360000000000005,0.02,1.94
334,-0.05328,0.02,1.9000000000000001
335,-0.0532,0.0,1.8800000000000001
336,-0.05312,0.02,1.8800000000000001
337,-0.053040000000000004,0.02,1.86
338,-0.05296,0.02,1.84
339,-0.052879999999999996,0.0,1.82
340,-0.0528,0.0,1.82
341,-0.05272,0.0,1.8
342,-0.05264,0.0,1.78
343,-0.052559999999999996,0.02,1.78
344,-0.05248,0.02,1.74
345,-0.0524,0.02,1.74
346,-0.05232,0.02,1.74
347,-0.052239999999999995,0.02,1.72
348,-0.05216,0.02,1.7
349,-0.05208,0.0,1.7
350,-0.052000000000000005,0.02,1.68
351,-0.05192,0.02,1.6600000000000001
352,-0.05184,0.0,1.6400000000000001
353,-0.05176,0.02,1.6400000000000001
354,-0.051680000000000004,0.0,1.62
355,-0.0516,0.02,1.62
356,-0.051519999999999996,0.02,1.6
357,-0.05144,0.0,1.6
358,-0.05136,0.0,1.56
359,-0.05128,0.0,1.56
360,-0.051199999999999996,0.02,1.54
361,-0.05112,0.02,1.54
362,-0.05104,0.0,1.52
363,-0.05096,0.0,1.52
364,-0.050879999999999995,0.02,1.5
365,-0.0508,0.02,1.5
366,-0.05072,0.02,1.48
367,-0.050640000000000004,0.02,1.46
368,-0.05056,0.0,1.44
369,-0.05048,0.02,1.44
370,-0.0504,0.02,1.44
371,-0.050320000000000004,0.0,1.42
372,-0.05024,0.02,1.42
373,-0.050159999999999996,0.02,1.4000000000000001
374,-0.05008,0.02,1.3800000000000001
375,-0.05,0.0,1.3800000000000001
376,-0.04992,0.02,1.36
377,-0.049839999999999995,0.02,1.36
378,-0.04976,0.0,1.36
379,-0.04968,0.02,1.34
380,-0.0496,0.0,1.32
381,-0.049519999999999995,0.0,1.32
382,-0.04944,0.0,1.3
383,-0.04936,0.0,1.3
384,-0.04928,0.0,1.28
385,-0.0492,0.02,1.28
386,-0.04912,0.0,1.26
387,-0.04904,0.0,1.24
388,-0.048960000000000004,0.0,1.24
389,-0.04888,0.0,1.24
390,-0.048799999999999996,0.0,1.22
391,-0.04872,0.0,1.2
392,-0.048639999999999996,0.0,1.2
393,-0.04856,0.0,1.18
394,-0.04848,0.0,1.18
395,-0.0484,0.02,1.16
396,-0.04832,0.0,1.16
397,-0.04824,0.0,1.1400000000000001
398,-0.04816,0.02,1.1400000000000001
399,-0.04808,0.0,1.1400000000000001
400,-0.048,0.02,1.12
401,-0.04792,0.02,1.12
402,-0.04784,0.0,1.1
403,-0.04776,0.02,1.1
404,-0.04768,0.02,1.1
405,-0.047599999999999996,0.0,1.08
406,-0.04752,0.02,1.08
407,-0.047439999999999996,0.0,1.06
408,-0.04736,0.02,1.06
409,-0.047279999999999996,0.02,1.06
410,-0.0472,0.02,1.04
411,-0.04712,0.02,1.04
412,-0.04704,0.0,1.02
413,-0.04696,0.02,1.02
414,-0.04688,0.0,1.02
415,-0.0468,0.02,1.0
416,-0.04672,0.0,1.0
417,-0.04664,0.02,0.98
418,-0.04656,0.0,0.98
419,-0.04648,0.02,0.96
420,-0.0464,0.02,0.9400000000000001
421,-0.04632,0.0,0.9400000000000001
422,-0.046239999999999996,0.02,0.9400000000000001
423,-0.04616,0.0,0.9400000000000001
424,-0.046079999999999996,0.02,0.92
425,-0.046,0.0,0.92
426,-0.045919999999999996,0.02,0.9
427,-0.04584,0.0,0.9
428,-0.04576,0.02,0.9
429,-0.04568,0.02,0.88
430,-0.0456,0.0,0.88
431,-0.04552,0.0,0.88
432,-0.04544,0.0,0.86
433,-0.04536,-0.02,0.86
434,-0.04528,0.0,0.86
435,-0.0452,0.02,0.84
436,-0.04512,0.0,0.84
437,-0.04504,0.02,0.84
438,-0.04496,0.0,0.8200000000000001
439,-0.044879999999999996,0.02,0.8200000000000001
440,-0.0448,0.0,0.8200000000000001
441,-0.044719999999999996,0.0,0.8200000000000001
442,-0.04464,0.02,0.8
443,-0.044559999999999995,0.02,0.78
444,-0.04448,0.02,0.78
445,-0.0444,0.0,0.78
446,-0.04432,0.02,0.76
447,-0.04424,0.0,0.76
448,-0.04416,0.0,0.76
449,-0.04408,0.0,0.76
450,-0.044,0.02,0.74
451,-0.04392,0.0,0.74
452,-0.04384,0.02,0.74
453,-0.04376,0.0,0.74
454,-0.04368,0.0,0.72
455,-0.0436,0.0,0.72
456,-0.043519999999999996,0.0,0.72
457,-0.04344,0.0,0.7000000000000001
458,-0.043359999999999996,0.0,0.7000000000000001
459,-0.04328,0.0,0.7000000000000001
460,-0.043199999999999995,0.0,0.68
461,-0.04312,0.0,0.68
462,-0.04304,0.0,0.68
463,-0.04296,0.0,0.68
464,-0.04288,0.0,0.66
465,-0.0428,0.0,0.66
466,-0.04272,0.0,0.66
467,-0.04264,0.0,0.64
468,-0.04256,0.0,0.64
469,-0.04248,0.0,0.64
470,-0.0424,0.0,0.64
471,-0.042319999999999997,0.0,0.64
472,-0.04224,0.0,0.62
473,-0.042159999999999996,0.0,0.6
474,-0.04208,0.0,0.62
475,-0.041999999999999996,0.0,0.6
476,-0.04192,0.0,0.6
477,-0.041839999999999995,0.0,0.6
478,-0.04176,0.02,0.58
479,-0.04168,0.0,0.6
480,-0.0416,0.0,0.58
481,-0.04152,-0.02,0.58
482,-0.04144,0.0,0.58
483,-0.04136,0.0,0.56
484,-0.04128,0.0,0.58
485,-0.0412,0.0,0.56
486,-0.04112,0.02,0.56
487,-0.04104,0.0,0.54
488,-0.040959999999999996,0.02,0.54
489,-0.04088,0.0,0.54
490,-0.040799999999999996,0.02,0.54
491,-0.04072,0.02,0.54
492,-0.040639999999999996,0.0,0.54
493,-0.04056,0.0,0.52
494,-0.040479999999999995,0.0,0.52
495,-0.0404,0.0,0.52
496,-0.04032,0.0,0.52
497,-0.04024,0.0,0.52
498,-0.04016,0.0,0.5
499,-0.04008,0.0,0.5
500,-0.04,0.02,0.5
501,-0.03992,0.0,0.5
502,-0.03984,0.02,0.5
503,-0.03976,0.0,0.48
504,-0.03968,0.0,0.48
505,-0.039599999999999996,0.0,0.48
506,-0.03952,0.0,0.48
507,-0.039439999999999996,0.0,0.46
508,-0.03936,0.02,0.46
509,-0.039279999999999995,0.0,0.46
510,-0.0392,0.0,0.46
511,-0.039119999999999995,0.02,0.46
512,-0.03904,0.0,0.44
513,-0.03896,0.0,0.44
514,-0.03888,0.02,0.44
515,-0.0388,0.02,0.44
516,-0.03872,0.02,0.44
517,-0.03864,0.0,0.44
518,-0.03856,0.0,0.44
519,-0.03848,0.0,0.42
520,-0.0384,0.02,0.42
521,-0.03832,0.0,0.42
522,-0.038239999999999996,0.0,0.42
523,-0.03816,0.0,0.42
524,-0.038079999999999996,0.02,0.42
525,-0.038,0.02,0.42
526,-0.037919999999999995,0.0,0.4
527,-0.03784,0.0,0.4
528,-0.037759999999999995,0.0,0.4
529,-0.03768,0.0,0.4
530,-0.0376,0.02,0.4
531,-0.03752,0.0,0.38
532,-0.03744,0.02,0.38
533,-0.03736,0.0,0.38
534,-0.03728,0.0,0.38
535,-0.0372,0.0,0.38
536,-0.03712,0.0,0.38
537,-0.03704,0.0,0.36
538,-0.03696,0.0,0.36
539,-0.036879999999999996,0.0,0.36
540,-0.0368,0.0,0.36
541,-0.036719999999999996,0.0,0.36
542,-0.03664,0.0,0.36
543,-0.036559999999999995,0.0,0.34
544,-0.03648,0.0,0.36
545,-0.036399999999999995,0.0,0.36
546,-0.03632,0.0,0.34
547,-0.03624,0.0,0.34
548,-0.03616,0.0,0.34
549,-0.03608,0.0,0.34
550,-0.036,-0.02,0.34
551,-0.03592,0.0,0.32
552,-0.03584,0.0,0.34
553,-0.03576,0.0,0.32
554,-0.035679999999999996,0.0,0.32
555,-0.0356,0.0,0.32
556,-0.035519999999999996,0.02,0.32
557,-0.03544,0.0,0.32
558,-0.035359999999999996,0.0,0.32
559,-0.03528,0.02,0.32
560,-0.035199999999999995,0.0,0.32
561,-0.03512,0.0,0.3
562,-0.035039999999999995,0.0,0.32
563,-0.03496,0.0,0.3
564,-0.03488,0.0,0.3
565,-0.0348,0.0,0.3
566,-0.03472,0.0,0.28
567,-0.03464,0.02,0.3
568,-0.03456,0.0,0.28
569,-0.03448,0.0,0.28
570,-0.0344,0.0,0.3
571,-0.034319999999999996,0.0,0.28
572,-0.03424,0.02,0.28
573,-0.034159999999999996,0.0,0.28
574,-0.03408,0.0,0.28
575,-0.033999999999999996,0.0,0.28
576,-0.03392,0.02,0.28
577,-0.033839999999999995,0.0,0.28
578,-0.03376,0.0,0.26
579,-0.033679999999999995,0.0,0.26
580,-0.0336,0.0,0.26
581,-0.03352,0.0,0.26
582,-0.03344,0.0,0.28
583,-0.03336,0.02,0.26
584,-0.03328,0.0,0.26
585,-0.0332,0.0,0.26
586,-0.03312,0.0,0.26
587,-0.03304,0.0,0.24
588,-0.032959999999999996,0.0,0.26
589,-0.03288,0.0,0.24
590,-0.032799999999999996,0.0,0.24
591,-0.03272,0.0,0.24
592,-0.032639999999999995,0.0,0.24
593,-0.03256,0.0,0.24
594,-0.032479999999999995,0.0,0.24
595,-0.0324,0.0,0.24
596,-0.032319999999999995,0.0,0.24
597,-0.03224,0.02,0.22
598,-0.03216,0.0,0.22
599,-0.03208,0.0,0.22
600,-0.032,0.0,0.22
601,-0.03192,0.0,0.22
602,-0.03184,0.02,0.22
603,-0.03176,0.0,0.22
604,-0.03168,0.0,0.22
605,-0.031599999999999996,0.0,0.22
606,-0.03152,0.0,0.22
607,-0.031439999999999996,0.0,0.22
608,-0.03136,0.0,0.2
609,-0.031279999999999995,0.0,0.22
610,-0.0312,0.0,0.2
611,-0.031119999999999995,0.0,0.22
612,-0.031039999999999998,0.0,0.2
613,-0.030959999999999994,0.0,0.2
614,-0.030879999999999998,0.0,0.2
615,-0.0308,0.0,0.2
616,-0.030719999999999997,0.0,0.2
617,-0.03064,0.0,0.2
618,-0.030559999999999997,0.0,0.2
619,-0.03048,0.0,0.2
620,-0.030399999999999996,0.0,0.2
621,-0.03032,0.0,0.2
622,-0.030239999999999996,0.0,0.18
623,-0.03016,0.0,0.2
624,-0.030079999999999996,0.0,0.2
625,-0.03,0.0,0.18
626,-0.029919999999999995,0.0,0.18
627,-0.02984,0.0,0.18
628,-0.029759999999999995,0.0,0.18
629,-0.029679999999999998,0.02,0.18
630,-0.029599999999999994,0.02,0.18
631,-0.029519999999999998,0.0,0.18
632,-0.02944,0.0,0.18
633,-0.029359999999999997,0.02,0.18
634,-0.02928,0.0,0.18
635,-0.029199999999999997,0.0,0.18
636,-0.02912,0.0,0.18
637,-0.029039999999999996,0.0,0.18
638,-0.02896,0.0,0.16
639,-0.028879999999999996,0.0,0.16
640,-0.0288,0.0,0.16
641,-0.028719999999999996,0.0,0.16
642,-0.02864,0.0,0.16
643,-0.028559999999999995,0.0,0.16
644,-0.02848,0.0,0.16
645,-0.028399999999999995,0.0,0.16
646,-0.028319999999999998,-0.02,0.16
647,-0.028239999999999994,0.0,0.16
648,-0.028159999999999998,0.02,0.16
649,-0.02808,0.0,0.16
650,-0.027999999999999997,0.0,0.16
651,-0.02792,0.02,0.16
652,-0.027839999999999997,-0.02,0.16
653,-0.02776,0.0,0.16
654,-0.027679999999999996,0.0,0.16
655,-0.0276,0.0,0.16
656,-0.027519999999999996,0.0,0.14
657,-0.02744,0.0,0.14
658,-0.027359999999999995,0.0,0.16
659,-0.02728,0.0,0.16
660,-0.027199999999999995,0.0,0.14
661,-0.02712,0.0,0.14
662,-0.027039999999999995,0.0,0.14
663,-0.026959999999999998,0.0,0.14
664,-0.026879999999999994,0.02,0.14
665,-0.026799999999999997,0.02,0.14
666,-0.02672,0.0,0.12
667,-0.026639999999999997,0.0,0.14
668,-0.02656,0.0,0.14
669,-0.026479999999999997,0.0,0.14
670,-0.0264,0.0,0.12
671,-0.026319999999999996,0.0,0.14
672,-0.02624,0.0,0.12
673,-0.026159999999999996,0.0,0.14
674,-0.02608,0.0,0.12
675,-0.025999999999999995,0.0,0.12
676,-0.02592,0.0,0.12
677,-0.025839999999999995,0.0,0.12
678,-0.025759999999999998,0.0,0.14
679,-0.025679999999999994,0.0,0.12
680,-0.025599999999999998,0.0,0.12
681,-0.025519999999999994,0.0,0.12
682,-0.025439999999999997,0.0,0.12
683,-0.02536,0.0,0.12
684,-0.025279999999999997,0.0,0.12
685,-0.0252,0.0,0.12
686,-0.025119999999999996,0.0,0.12
687,-0.02504,0.0,0.12
688,-0.024959999999999996,0.0,0.12
689,-0.02488,0.0,0.12
690,-0.024799999999999996,0.0,0.12
691,-0.02472,0.0,0.12
692,-0.024639999999999995,0.0,0.12
693,-0.02456,0.0,0.12
694,-0.024479999999999995,0.0,0.1
695,-0.024399999999999998,0.0,0.12
696,-0.024319999999999994,0.02,0.1
697,-0.024239999999999998,0.0,0.12
698,-0.024159999999999994,0.02,0.12
699,-0.024079999999999997,0.0,0.1
700,-0.024,0.0,0.1
701,-0.023919999999999997,0.02,0.12
702,-0.02384,0.0,0.08
703,-0.023759999999999996,0.0,0.1
704,-0.02368,0.02,0.1
705,-0.023599999999999996,0.0,0.1
706,-0.02352,0.0,0.1
707,-0.023439999999999996,0.0,0.1
708,-0.02336,0.02,0.1
709,-0.023279999999999995,0.02,0.1
710,-0.0232,0.0,0.08
711,-0.023119999999999995,0.02,0.08
712,-0.023039999999999998,0.0,0.1
713,-0.022959999999999994,0.0,0.08
714,-0.022879999999999998,0.0,0.1
715,-0.022799999999999994,0.0,0.08
716,-0.022719999999999997,0.02,0.08
717,-0.02264,0.0,0.1
718,-0.022559999999999997,0.0,0.08
719,-0.02248,0.0,0.08
720,-0.022399999999999996,-0.02,0.1
721,-0.02232,0.0,0.1
722,-0.022239999999999996,0.0,0.08
723,-0.02216,0.0,0.08
724,-0.022079999999999995,0.0,0.08
725,-0.022,0.0,0.08
726,-0.021919999999999995,0.0,0.08
727,-0.02184,0.0,0.08
728,-0.021759999999999995,0.0,0.08
729,-0.021679999999999998,0.0,0.08
730,-0.021599999999999994,0.0,0.08
731,-0.021519999999999997,0.0,0.08
732,-0.021439999999999994,0.0,0.08
733,-0.021359999999999997,0.0,0.08
734,-0.02128,0.0,0.08
735,-0.021199999999999997,0.0,0.08
736,-0.02112,0.0,0.08
737,-0.021039999999999996,0.0,0.08
738,-0.02096,0.0,0.08
739,-0.020879999999999996,0.0,0.08
740,-0.0208,0.0,0.06
741,-0.020719999999999995,0.0,0.08
742,-0.02064,0.0,0.08
743,-0.020559999999999995,0.0,0.08
744,-0.020479999999999998,0.0,0.08
745,-0.020399999999999995,0.0,0.08
746,-0.020319999999999998,0.0,0.08
747,-0.020239999999999994,0.0,0.06
748,-0.020159999999999997,0.0,0.08
749,-0.020079999999999994,0.0,0.08
750,-0.019999999999999997,0.0,0.08
751,-0.01992,0.0,0.06
752,-0.019839999999999997,0.0,0.06
753,-0.01976,0.0,0.08
754,-0.019679999999999996,0.0,0.06
755,-0.0196,0.0,0.08
756,-0.019519999999999996,0.0,0.08
757,-0.01944,0.0,0.06
758,-0.019359999999999995,0.0,0.08
759,-0.01928,0.0,0.06
